T129C 050:420 SEGGER J-Link V6.20 Log File (0000ms, 0834ms total)
T129C 050:420 DLL Compiled: Sep  8 2017 18:04:35 (0000ms, 0834ms total)
T129C 050:420 Logging started @ 2018-02-03 23:15 (0000ms, 0834ms total)
T129C 050:420 JLINK_SetWarnOutHandler(...) (0000ms, 0834ms total)
T129C 050:420 JLINK_OpenEx(...)
Firmware: J-Link STLink V2 compiled Jun 26 2017 10:34:41
Hardware: V1.00
S/N: 777206053
TELNET listener socket opened on port 19021WEBSRV 
Webserver running on local port 19080  returns O.K. (0093ms, 0927ms total)
T129C 050:513 JLINK_GetEmuCaps()  returns 0x98EA5A33 (0000ms, 0927ms total)
T129C 050:514 JLINK_TIF_GetAvailable(...) (0000ms, 0927ms total)
T129C 050:514 JLINK_SetErrorOutHandler(...) (0000ms, 0927ms total)
T129C 050:514 JLINK_ExecCommand("ProjectFile = "C:\Users\TaterLi\Documents\lwip\MDK-ARM\JLinkSettings.ini"", ...).   returns 0x00 (0002ms, 0929ms total)
T129C 050:516 JLINK_ExecCommand("Device = STM32F407VGTx", ...). Device "STM32F407VG" selected.  returns 0x00 (0002ms, 0931ms total)
T129C 050:518 JLINK_ExecCommand("DisableConnectionTimeout", ...).   returns 0x01 (0000ms, 0931ms total)
T129C 050:518 JLINK_GetHardwareVersion()  returns 0x2710 (0000ms, 0931ms total)
T129C 050:518 JLINK_GetDLLVersion()  returns 62000 (0000ms, 0931ms total)
T129C 050:518 JLINK_GetFirmwareString(...) (0000ms, 0931ms total)
T129C 050:518 JLINK_GetDLLVersion()  returns 62000 (0000ms, 0931ms total)
T129C 050:518 JLINK_GetCompileDateTime() (0000ms, 0931ms total)
T129C 050:518 JLINK_GetFirmwareString(...) (0000ms, 0931ms total)
T129C 050:518 JLINK_GetHardwareVersion()  returns 0x2710 (0000ms, 0931ms total)
T129C 050:518 JLINK_TIF_Select(JLINKARM_TIF_SWD)  returns 0x00 (0000ms, 0931ms total)
T129C 050:518 JLINK_SetSpeed(5000) (0000ms, 0931ms total)
T129C 050:518 JLINK_GetId() >0x10B TIF>Found SW-DP with ID 0x4BA01477 >0x0D TIF> >0x28 TIF> >0x0D TIF> >0x28 TIF> >0x0D TIF> >0x28 TIF> >0x0D TIF> >0x28 TIF> >0x0D TIF> >0x21 TIF> >0x0D TIF> >0x28 TIF> >0x0D TIF> >0x28 TIF> >0x0D TIF> >0x28 TIF> >0x0D TIF> >0x21 TIF> >0x0D TIF> >0x21 TIF> >0x0D TIF> >0x28 TIF> >0x0D TIF> >0x21 TIF> >0x0D TIF> >0x21 TIF> >0x0D TIF> >0x28 TIF> >0x0D TIF> >0x21 TIF> >0x0D TIF> >0x21 TIF> >0x0D TIF> >0x28 TIF> >0x0D TIF> >0x21 TIF> >0x0D TIF> >0x21 TIF> >0x0D TIF> >0x28 TIF>
 >0x0D TIF> >0x21 TIF> >0x0D TIF> >0x21 TIF> >0x0D TIF> >0x28 TIF> >0x0D TIF> >0x21 TIF> >0x0D TIF> >0x21 TIF> >0x10B TIF>Found SW-DP with ID 0x4BA01477 >0x0D TIF> >0x28 TIF> >0x0D TIF> >0x28 TIF> >0x0D TIF> >0x28 TIF> >0x0D TIF> >0x28 TIF> >0x0D TIF> >0x21 TIF> >0x0D TIF> >0x28 TIF>Scanning AP map to find all available APs >0x0D TIF> >0x28 TIF> >0x0D TIF> >0x21 TIF> >0x0D TIF> >0x21 TIF> >0x0D TIF> >0x28 TIF> >0x0D TIF> >0x21 TIF> >0x0D TIF> >0x21 TIF>
AP[1]: Stopped AP scan as end of AP map has been reachedAP[0]: AHB-AP (IDR: 0x24770011)Iterating through AP map to find AHB-AP to use >0x42 TIF> >0x28 TIF> >0x0D TIF> >0x21 TIF> >0x0D TIF> >0x21 TIF> >0x42 TIF> >0x28 TIF> >0x0D TIF> >0x28 TIF> >0x0D TIF> >0x28 TIF> >0x0D TIF> >0x21 TIF> >0x0D TIF> >0x21 TIF>AP[0]: Core foundAP[0]: AHB-AP ROM base: 0xE00FF000 >0x0D TIF> >0x28 TIF> >0x0D TIF> >0x28 TIF> >0x0D TIF> >0x28 TIF> >0x0D TIF> >0x21 TIF> >0x0D TIF> >0x21 TIF>
CPUID register: 0x410FC241. Implementer code: 0x41 (ARM)Found Cortex-M4 r0p1, Little endian. -- CPU_ReadMem(4 bytes @ 0xE000EDF0) -- CPU_ReadMem(4 bytes @ 0xE0002000)FPUnit: 6 code (BP) slots and 2 literal slots -- CPU_ReadMem(4 bytes @ 0xE000EDFC) -- CPU_ReadMem(4 bytes @ 0xE0001000) -- CPU_WriteMem(4 bytes @ 0xE0001000) -- CPU_ReadMem(4 bytes @ 0xE000ED88) -- CPU_WriteMem(4 bytes @ 0xE000ED88) -- CPU_ReadMem(4 bytes @ 0xE000ED88) -- CPU_WriteMem(4 bytes @ 0xE000ED88)CoreSight components:
ROMTbl[0] @ E00FF000 -- CPU_ReadMem(16 bytes @ 0xE00FF000) -- CPU_ReadMem(16 bytes @ 0xE000EFF0) -- CPU_ReadMem(16 bytes @ 0xE000EFE0)ROMTbl[0][0]: E000E000, CID: B105E00D, PID: 000BB00C SCS -- CPU_ReadMem(16 bytes @ 0xE0001FF0) -- CPU_ReadMem(16 bytes @ 0xE0001FE0)ROMTbl[0][1]: E0001000, CID: B105E00D, PID: 003BB002 DWT -- CPU_ReadMem(16 bytes @ 0xE0002FF0) -- CPU_ReadMem(16 bytes @ 0xE0002FE0)ROMTbl[0][2]: E0002000, CID: B105E00D, PID: 002BB003 FPB -- CPU_ReadMem(16 bytes @ 0xE0000FF0)
 -- CPU_ReadMem(16 bytes @ 0xE0000FE0)ROMTbl[0][3]: E0000000, CID: B105E00D, PID: 003BB001 ITM -- CPU_ReadMem(16 bytes @ 0xE00FF010) -- CPU_ReadMem(16 bytes @ 0xE0040FF0) -- CPU_ReadMem(16 bytes @ 0xE0040FE0)ROMTbl[0][4]: E0040000, CID: B105900D, PID: 000BB9A1 TPIU -- CPU_ReadMem(16 bytes @ 0xE0041FF0) -- CPU_ReadMem(16 bytes @ 0xE0041FE0)ROMTbl[0][5]: E0041000, CID: B105900D, PID: 000BB925 ETM >0x0D TIF> >0x21 TIF>  returns 0x2BA01477 (0125ms, 1056ms total)
T129C 050:644 JLINK_GetDLLVersion()  returns 62000 (0000ms, 1056ms total)
T129C 050:644 JLINK_CORE_GetFound()  returns 0xE0000FF (0000ms, 1056ms total)
T129C 050:644 JLINK_GetDebugInfo(0x100 = JLINKARM_ROM_TABLE_ADDR_INDEX) -- Value=0xE00FF000  returns 0x00 (0000ms, 1056ms total)
T129C 050:644 JLINK_GetDebugInfo(0x100 = JLINKARM_ROM_TABLE_ADDR_INDEX) -- Value=0xE00FF000  returns 0x00 (0000ms, 1056ms total)
T129C 050:644 JLINK_GetDebugInfo(0x101 = JLINKARM_DEBUG_INFO_ETM_ADDR_INDEX) -- Value=0xE0041000  returns 0x00 (0000ms, 1056ms total)
T129C 050:644 JLINK_ReadMemEx(0xE0041FD0, 0x0020 Bytes, ..., Flags = 0x02000004) -- CPU_ReadMem(32 bytes @ 0xE0041FD0) - Data: 04 00 00 00 00 00 00 00 00 00 00 00 00 00 00 00 ...  returns 0x20 (0000ms, 1056ms total)
T129C 050:644 JLINK_GetDebugInfo(0x102 = JLINKARM_DEBUG_INFO_MTB_ADDR_INDEX) -- Value=0x00000000  returns 0x00 (0000ms, 1056ms total)
T129C 050:644 JLINK_GetDebugInfo(0x103 = JLINKARM_DEBUG_INFO_TPIU_ADDR_INDEX) -- Value=0xE0040000  returns 0x00 (0000ms, 1056ms total)
T129C 050:644 JLINK_GetDebugInfo(0x104 = JLINKARM_DEBUG_INFO_ITM_ADDR_INDEX) -- Value=0xE0000000  returns 0x00 (0000ms, 1056ms total)
T129C 050:644 JLINK_GetDebugInfo(0x105 = JLINKARM_DEBUG_INFO_DWT_ADDR_INDEX) -- Value=0xE0001000  returns 0x00 (0000ms, 1056ms total)
T129C 050:644 JLINK_GetDebugInfo(0x106 = JLINKARM_DEBUG_INFO_FPB_ADDR_INDEX) -- Value=0xE0002000  returns 0x00 (0000ms, 1056ms total)
T129C 050:644 JLINK_GetDebugInfo(0x107 = JLINKARM_DEBUG_INFO_NVIC_ADDR_INDEX) -- Value=0xE000E000  returns 0x00 (0000ms, 1056ms total)
T129C 050:644 JLINK_GetDebugInfo(0x10C = JLINKARM_DEBUG_INFO_DBG_ADDR_INDEX) -- Value=0xE000EDF0  returns 0x00 (0000ms, 1056ms total)
T129C 050:644 JLINK_ReadMemU32(0xE000EF40, 0x0001 Items, ...) -- CPU_ReadMem(4 bytes @ 0xE000EF40) - Data: 21 00 11 10  returns 0x01 (0001ms, 1057ms total)
T129C 050:645 JLINK_ReadMemU32(0xE000EF44, 0x0001 Items, ...) -- CPU_ReadMem(4 bytes @ 0xE000EF44) - Data: 11 00 00 11  returns 0x01 (0000ms, 1057ms total)
T129C 050:645 JLINK_ReadMemU32(0xE000ED00, 0x0001 Items, ...) -- CPU_ReadMem(4 bytes @ 0xE000ED00) - Data: 41 C2 0F 41  returns 0x01 (0000ms, 1057ms total)
T129C 050:645 JLINK_GetDebugInfo(0x10F = JLINKARM_DEBUG_INFO_HAS_CORTEX_M_SECURITY_EXT_INDEX) -- Value=0x00000000  returns 0x00 (0000ms, 1057ms total)
T129C 050:645 JLINK_SetResetType(JLINKARM_CM3_RESET_TYPE_NORMAL)  returns JLINKARM_CM3_RESET_TYPE_NORMAL (0000ms, 1057ms total)
T129C 050:645 JLINK_Reset() -- CPU is running -- CPU_WriteMem(4 bytes @ 0xE000EDF0) -- CPU is running -- CPU_WriteMem(4 bytes @ 0xE000EDFC)Reset: Halt core after reset via DEMCR.VC_CORERESET. >0x35 TIF>Reset: Reset device via AIRCR.SYSRESETREQ. -- CPU is running -- CPU_WriteMem(4 bytes @ 0xE000ED0C) >0x0D TIF> >0x28 TIF> -- CPU_ReadMem(4 bytes @ 0xE000EDF0) -- CPU_ReadMem(4 bytes @ 0xE000EDF0) -- CPU is running -- CPU_WriteMem(4 bytes @ 0xE000EDF0) -- CPU is running -- CPU_WriteMem(4 bytes @ 0xE000EDFC)
 -- CPU_ReadMem(4 bytes @ 0xE000EDF0) -- CPU_WriteMem(4 bytes @ 0xE0002000) -- CPU_ReadMem(4 bytes @ 0xE000EDFC) -- CPU_ReadMem(4 bytes @ 0xE0001000) (0065ms, 1122ms total)
T129C 050:710 JLINK_ReadReg(R15 (PC))  returns 0x0800025C (0000ms, 1122ms total)
T129C 050:710 JLINK_ReadReg(XPSR)  returns 0x01000000 (0000ms, 1122ms total)
T129C 050:710 JLINK_Halt()  returns 0x00 (0000ms, 1122ms total)
T129C 050:710 JLINK_ReadMemU32(0xE000EDF0, 0x0001 Items, ...) -- CPU_ReadMem(4 bytes @ 0xE000EDF0) - Data: 03 00 03 00  returns 0x01 (0000ms, 1122ms total)
T129C 050:710 JLINK_WriteU32(0xE000EDF0, 0xA05F0003) -- CPU_WriteMem(4 bytes @ 0xE000EDF0)  returns 0x00 (0000ms, 1122ms total)
T129C 050:710 JLINK_WriteU32(0xE000EDFC, 0x01000000) -- CPU_WriteMem(4 bytes @ 0xE000EDFC)  returns 0x00 (0001ms, 1123ms total)
T129C 050:711 JLINK_GetHWStatus(...)  returns 0x00 (0000ms, 1123ms total)
T129C 050:711 JLINK_GetNumBPUnits(Type = 0xFFFFFF00)  returns 0x06 (0000ms, 1123ms total)
T129C 050:711 JLINK_GetNumBPUnits(Type = 0xF0)  returns 0x2000 (0000ms, 1123ms total)
T129C 050:711 JLINK_GetNumWPUnits()  returns 0x04 (0000ms, 1123ms total)
T129C 050:711 JLINK_GetSpeed()  returns 0xFA0 (0000ms, 1123ms total)
T129C 050:711 JLINK_ReadMemU32(0xE000E004, 0x0001 Items, ...) -- CPU_ReadMem(4 bytes @ 0xE000E004) - Data: 02 00 00 00  returns 0x01 (0000ms, 1123ms total)
T129C 050:711 JLINK_ReadMemU32(0xE000E004, 0x0001 Items, ...) -- CPU_ReadMem(4 bytes @ 0xE000E004) - Data: 02 00 00 00  returns 0x01 (0000ms, 1123ms total)
T129C 050:711 JLINK_WriteMemEx(0xE0001000, 0x001C Bytes, ..., Flags = 0x02000004) - Data: 01 00 00 00 00 00 00 00 00 00 00 00 00 00 00 00 ... -- CPU_WriteMem(28 bytes @ 0xE0001000)  returns 0x1C (0001ms, 1124ms total)
T129C 050:712 JLINK_ReadReg(R15 (PC))  returns 0x0800025C (0000ms, 1124ms total)
T129C 050:712 JLINK_ReadReg(XPSR)  returns 0x01000000 (0000ms, 1124ms total)
T129C 050:832 JLINK_SetResetType(JLINKARM_CM3_RESET_TYPE_NORMAL)  returns JLINKARM_CM3_RESET_TYPE_NORMAL (0000ms, 1124ms total)
T129C 050:832 JLINK_Reset() -- CPU_WriteMem(4 bytes @ 0xE000EDF0) -- CPU_WriteMem(4 bytes @ 0xE000EDFC)Reset: Halt core after reset via DEMCR.VC_CORERESET. >0x35 TIF>Reset: Reset device via AIRCR.SYSRESETREQ. -- CPU_WriteMem(4 bytes @ 0xE000ED0C) >0x0D TIF> >0x28 TIF> -- CPU_ReadMem(4 bytes @ 0xE000EDF0) -- CPU_ReadMem(4 bytes @ 0xE000EDF0) -- CPU_WriteMem(4 bytes @ 0xE000EDF0) -- CPU_WriteMem(4 bytes @ 0xE000EDFC) -- CPU_ReadMem(4 bytes @ 0xE000EDF0) -- CPU_WriteMem(4 bytes @ 0xE0002000)
 -- CPU_ReadMem(4 bytes @ 0xE000EDFC) -- CPU_ReadMem(4 bytes @ 0xE0001000) (0065ms, 1189ms total)
T129C 050:897 JLINK_ReadReg(R15 (PC))  returns 0x0800025C (0000ms, 1189ms total)
T129C 050:897 JLINK_ReadReg(XPSR)  returns 0x01000000 (0000ms, 1189ms total)
T129C 050:897 JLINK_ReadMemEx(0x0800025C, 0x003C Bytes, ..., Flags = 0x02000000) -- CPU_ReadMem(128 bytes @ 0x08000240) -- Updating C cache (128 bytes @ 0x08000240) -- Read from C cache (60 bytes @ 0x0800025C) - Data: 06 48 80 47 06 48 00 47 FE E7 FE E7 FE E7 FE E7 ...  returns 0x3C (0001ms, 1190ms total)
T129C 050:970 JLINK_ReadMemEx(0xE000ED28, 0x0004 Bytes, ..., Flags = 0x02000000) -- CPU_ReadMem(4 bytes @ 0xE000ED28) - Data: 00 00 00 00  returns 0x04 (0000ms, 1190ms total)
T129C 050:970 JLINK_ReadMemEx(0xE000ED2C, 0x0004 Bytes, ..., Flags = 0x02000000) -- CPU_ReadMem(4 bytes @ 0xE000ED2C) - Data: 00 00 00 00  returns 0x04 (0000ms, 1190ms total)
T129C 050:970 JLINK_ReadMemEx(0xE000ED30, 0x0004 Bytes, ..., Flags = 0x02000000) -- CPU_ReadMem(4 bytes @ 0xE000ED30) - Data: 09 00 00 00  returns 0x04 (0001ms, 1191ms total)
T129C 050:971 JLINK_ReadMemEx(0xE000ED34, 0x0004 Bytes, ..., Flags = 0x02000000) -- CPU_ReadMem(4 bytes @ 0xE000ED34) - Data: F8 ED 00 E0  returns 0x04 (0000ms, 1191ms total)
T129C 050:971 JLINK_ReadMemEx(0xE000ED38, 0x0004 Bytes, ..., Flags = 0x02000000) -- CPU_ReadMem(4 bytes @ 0xE000ED38) - Data: F8 ED 00 E0  returns 0x04 (0000ms, 1191ms total)
T129C 050:971 JLINK_ReadMemEx(0xE000ED3C, 0x0004 Bytes, ..., Flags = 0x02000000) -- CPU_ReadMem(4 bytes @ 0xE000ED3C) - Data: 00 00 00 00  returns 0x04 (0001ms, 1192ms total)
T129C 051:013 JLINK_ReadMemEx(0x40029000, 0x0024 Bytes, ..., Flags = 0x02000004) -- CPU_ReadMem(36 bytes @ 0x40029000) - Data: 00 00 00 00 00 00 00 00 00 00 00 00 00 00 00 00 ...  returns 0x24 (0000ms, 1192ms total)
T129C 051:013 JLINK_ReadMemEx(0x40029000, 0x0004 Bytes, ..., Flags = 0x02000004) -- CPU_ReadMem(4 bytes @ 0x40029000) - Data: 00 00 00 00  returns 0x04 (0001ms, 1193ms total)
T129C 051:014 JLINK_ReadMemEx(0x40029004, 0x0004 Bytes, ..., Flags = 0x02000004) -- CPU_ReadMem(4 bytes @ 0x40029004) - Data: 00 00 00 00  returns 0x04 (0000ms, 1193ms total)
T129C 051:014 JLINK_ReadMemEx(0x40029008, 0x0004 Bytes, ..., Flags = 0x02000004) -- CPU_ReadMem(4 bytes @ 0x40029008) - Data: 00 00 00 00  returns 0x04 (0000ms, 1193ms total)
T129C 051:014 JLINK_ReadMemEx(0x4002900C, 0x0004 Bytes, ..., Flags = 0x02000004) -- CPU_ReadMem(4 bytes @ 0x4002900C) - Data: 00 00 00 00  returns 0x04 (0001ms, 1194ms total)
T129C 051:015 JLINK_ReadMemEx(0x40029010, 0x0004 Bytes, ..., Flags = 0x02000004) -- CPU_ReadMem(4 bytes @ 0x40029010) - Data: 00 00 00 00  returns 0x04 (0000ms, 1194ms total)
T129C 051:015 JLINK_ReadMemEx(0x40029014, 0x0004 Bytes, ..., Flags = 0x02000004) -- CPU_ReadMem(4 bytes @ 0x40029014) - Data: 00 00 00 00  returns 0x04 (0000ms, 1194ms total)
T129C 051:015 JLINK_ReadMemEx(0x40029018, 0x0004 Bytes, ..., Flags = 0x02000004) -- CPU_ReadMem(4 bytes @ 0x40029018) - Data: 00 00 00 00  returns 0x04 (0001ms, 1195ms total)
T129C 051:016 JLINK_ReadMemEx(0x4002901C, 0x0004 Bytes, ..., Flags = 0x02000004) -- CPU_ReadMem(4 bytes @ 0x4002901C) - Data: 00 00 00 00  returns 0x04 (0000ms, 1195ms total)
T129C 051:016 JLINK_ReadMemEx(0x40029020, 0x0004 Bytes, ..., Flags = 0x02000004) -- CPU_ReadMem(4 bytes @ 0x40029020) - Data: 00 00 00 00  returns 0x04 (0000ms, 1195ms total)
T129C 051:016 JLINK_ReadMemEx(0x40029024, 0x0004 Bytes, ..., Flags = 0x02000004) -- CPU_ReadMem(4 bytes @ 0x40029024) - Data: 00 00 00 00  returns 0x04 (0000ms, 1195ms total)
T129C 051:016 JLINK_ReadMemEx(0x40029024, 0x0004 Bytes, ..., Flags = 0x02000004) -- CPU_ReadMem(4 bytes @ 0x40029024) - Data: 00 00 00 00  returns 0x04 (0001ms, 1196ms total)
T129C 051:017 JLINK_ReadMemEx(0x40029048, 0x000C Bytes, ..., Flags = 0x02000004) -- CPU_ReadMem(12 bytes @ 0x40029048) - Data: 00 00 00 00 00 00 00 00 00 00 00 00  returns 0x0C (0000ms, 1196ms total)
T129C 051:017 JLINK_ReadMemEx(0x40029048, 0x0004 Bytes, ..., Flags = 0x02000004) -- CPU_ReadMem(4 bytes @ 0x40029048) - Data: 00 00 00 00  returns 0x04 (0000ms, 1196ms total)
T129C 051:017 JLINK_ReadMemEx(0x4002904C, 0x0004 Bytes, ..., Flags = 0x02000004) -- CPU_ReadMem(4 bytes @ 0x4002904C) - Data: 00 00 00 00  returns 0x04 (0001ms, 1197ms total)
T129C 051:018 JLINK_ReadMemEx(0x40029050, 0x0004 Bytes, ..., Flags = 0x02000004) -- CPU_ReadMem(4 bytes @ 0x40029050) - Data: 00 00 00 00  returns 0x04 (0000ms, 1197ms total)
T129C 051:018 JLINK_ReadMemEx(0x40029054, 0x0004 Bytes, ..., Flags = 0x02000004) -- CPU_ReadMem(4 bytes @ 0x40029054) - Data: 00 00 00 00  returns 0x04 (0000ms, 1197ms total)
T129C 051:018 JLINK_ReadMemEx(0x40029054, 0x0004 Bytes, ..., Flags = 0x02000004) -- CPU_ReadMem(4 bytes @ 0x40029054) - Data: 00 00 00 00  returns 0x04 (0001ms, 1198ms total)
T129C 051:048 JLINK_ReadMemEx(0x50060800, 0x0008 Bytes, ..., Flags = 0x02000004) -- CPU_ReadMem(8 bytes @ 0x50060800) - Data: 00 00 00 00 00 00 00 00  returns 0x08 (0000ms, 1198ms total)
T129C 051:048 JLINK_ReadMemEx(0x50060800, 0x0004 Bytes, ..., Flags = 0x02000004) -- CPU_ReadMem(4 bytes @ 0x50060800) - Data: 00 00 00 00  returns 0x04 (0000ms, 1198ms total)
T129C 051:048 JLINK_ReadMemEx(0x50060804, 0x0004 Bytes, ..., Flags = 0x02000004) -- CPU_ReadMem(4 bytes @ 0x50060804) - Data: 00 00 00 00  returns 0x04 (0001ms, 1199ms total)
T129C 051:049 JLINK_ReadMemEx(0x50060808, 0x0004 Bytes, ..., Flags = 0x02000004) -- CPU_ReadMem(4 bytes @ 0x50060808) - Data: 00 00 00 00  returns 0x04 (0000ms, 1199ms total)
T129C 051:049 JLINK_ReadMemEx(0x50060808, 0x0004 Bytes, ..., Flags = 0x02000004) -- CPU_ReadMem(4 bytes @ 0x50060808) - Data: 00 00 00 00  returns 0x04 (0000ms, 1199ms total)
T129C 051:969 JLINK_ReadReg(R0)  returns 0x00000000 (0000ms, 1199ms total)
T129C 051:969 JLINK_ReadReg(R1)  returns 0x00000000 (0000ms, 1199ms total)
T129C 051:969 JLINK_ReadReg(R2)  returns 0x00000000 (0000ms, 1199ms total)
T129C 051:969 JLINK_ReadReg(R3)  returns 0x00000000 (0000ms, 1199ms total)
T129C 051:969 JLINK_ReadReg(R4)  returns 0x00000000 (0000ms, 1199ms total)
T129C 051:969 JLINK_ReadReg(R5)  returns 0x00000000 (0000ms, 1199ms total)
T129C 051:969 JLINK_ReadReg(R6)  returns 0x00000000 (0000ms, 1199ms total)
T129C 051:969 JLINK_ReadReg(R7)  returns 0x00000000 (0000ms, 1199ms total)
T129C 051:969 JLINK_ReadReg(R8)  returns 0x00000000 (0000ms, 1199ms total)
T129C 051:969 JLINK_ReadReg(R9)  returns 0x00000000 (0000ms, 1199ms total)
T129C 051:969 JLINK_ReadReg(R10)  returns 0x00000000 (0000ms, 1199ms total)
T129C 051:969 JLINK_ReadReg(R11)  returns 0x00000000 (0000ms, 1199ms total)
T129C 051:969 JLINK_ReadReg(R12)  returns 0x00000000 (0000ms, 1199ms total)
T129C 051:969 JLINK_ReadReg(R13 (SP))  returns 0x2000A498 (0000ms, 1199ms total)
T129C 051:969 JLINK_ReadReg(R14)  returns 0xFFFFFFFF (0000ms, 1199ms total)
T129C 051:969 JLINK_ReadReg(R15 (PC))  returns 0x0800025C (0000ms, 1199ms total)
T129C 051:969 JLINK_ReadReg(XPSR)  returns 0x01000000 (0000ms, 1199ms total)
T129C 051:969 JLINK_ReadReg(MSP)  returns 0x2000A498 (0000ms, 1199ms total)
T129C 051:969 JLINK_ReadReg(PSP)  returns 0x00000000 (0000ms, 1199ms total)
T129C 051:969 JLINK_ReadReg(CFBP)  returns 0x00000000 (0000ms, 1199ms total)
T129C 051:969 JLINK_ReadReg(FPSCR)  returns 0x00000000 (0005ms, 1204ms total)
T129C 051:974 JLINK_ReadReg(FPS0)  returns 0x00000000 (0000ms, 1204ms total)
T129C 051:974 JLINK_ReadReg(FPS1)  returns 0x00000000 (0000ms, 1204ms total)
T129C 051:974 JLINK_ReadReg(FPS2)  returns 0x00000000 (0000ms, 1204ms total)
T129C 051:974 JLINK_ReadReg(FPS3)  returns 0x00000000 (0000ms, 1204ms total)
T129C 051:974 JLINK_ReadReg(FPS4)  returns 0x00000000 (0000ms, 1204ms total)
T129C 051:974 JLINK_ReadReg(FPS5)  returns 0x00000000 (0000ms, 1204ms total)
T129C 051:974 JLINK_ReadReg(FPS6)  returns 0x00000000 (0000ms, 1204ms total)
T129C 051:974 JLINK_ReadReg(FPS7)  returns 0x00000000 (0000ms, 1204ms total)
T129C 051:974 JLINK_ReadReg(FPS8)  returns 0x00000000 (0000ms, 1204ms total)
T129C 051:974 JLINK_ReadReg(FPS9)  returns 0x00000000 (0000ms, 1204ms total)
T129C 051:974 JLINK_ReadReg(FPS10)  returns 0x00000000 (0000ms, 1204ms total)
T129C 051:974 JLINK_ReadReg(FPS11)  returns 0x00000000 (0000ms, 1204ms total)
T129C 051:974 JLINK_ReadReg(FPS12)  returns 0x00000000 (0000ms, 1204ms total)
T129C 051:974 JLINK_ReadReg(FPS13)  returns 0x00000000 (0000ms, 1204ms total)
T129C 051:974 JLINK_ReadReg(FPS14)  returns 0x00000000 (0000ms, 1204ms total)
T129C 051:974 JLINK_ReadReg(FPS15)  returns 0x00000000 (0000ms, 1204ms total)
T129C 051:974 JLINK_ReadReg(FPS16)  returns 0x00000000 (0000ms, 1204ms total)
T129C 051:974 JLINK_ReadReg(FPS17)  returns 0x00000000 (0000ms, 1204ms total)
T129C 051:974 JLINK_ReadReg(FPS18)  returns 0x00000000 (0000ms, 1204ms total)
T129C 051:974 JLINK_ReadReg(FPS19)  returns 0x00000000 (0000ms, 1204ms total)
T129C 051:974 JLINK_ReadReg(FPS20)  returns 0x00000000 (0000ms, 1204ms total)
T129C 051:974 JLINK_ReadReg(FPS21)  returns 0x00000000 (0000ms, 1204ms total)
T129C 051:974 JLINK_ReadReg(FPS22)  returns 0x00000000 (0000ms, 1204ms total)
T129C 051:974 JLINK_ReadReg(FPS23)  returns 0x00000000 (0000ms, 1204ms total)
T129C 051:974 JLINK_ReadReg(FPS24)  returns 0x00000000 (0000ms, 1204ms total)
T129C 051:974 JLINK_ReadReg(FPS25)  returns 0x00000000 (0000ms, 1204ms total)
T129C 051:974 JLINK_ReadReg(FPS26)  returns 0x00000000 (0000ms, 1204ms total)
T129C 051:974 JLINK_ReadReg(FPS27)  returns 0x00000000 (0000ms, 1204ms total)
T129C 051:974 JLINK_ReadReg(FPS28)  returns 0x00000000 (0000ms, 1204ms total)
T129C 051:974 JLINK_ReadReg(FPS29)  returns 0x00000000 (0000ms, 1204ms total)
T129C 051:974 JLINK_ReadReg(FPS30)  returns 0x00000000 (0000ms, 1204ms total)
T129C 051:974 JLINK_ReadReg(FPS31)  returns 0x00000000 (0000ms, 1204ms total)
T129C 051:981 JLINK_ReadMemEx(0x20000084, 0x0004 Bytes, ..., Flags = 0x02000000) -- CPU_ReadMem(64 bytes @ 0x20000080) -- Updating C cache (64 bytes @ 0x20000080) -- Read from C cache (4 bytes @ 0x20000084) - Data: 00 00 00 00  returns 0x04 (0000ms, 1204ms total)
T129C 051:987 JLINK_ReadMemEx(0x2000008C, 0x0004 Bytes, ..., Flags = 0x02000000) -- Read from C cache (4 bytes @ 0x2000008C) - Data: 00 00 00 00  returns 0x04 (0000ms, 1204ms total)
T129C 051:991 JLINK_ReadMemEx(0x20000090, 0x0004 Bytes, ..., Flags = 0x02000000) -- Read from C cache (4 bytes @ 0x20000090) - Data: 00 00 00 00  returns 0x04 (0000ms, 1204ms total)
T5378 052:014 JLINK_ReadMemEx(0x0800025C, 0x0002 Bytes, ..., Flags = 0x02000000) -- Read from C cache (2 bytes @ 0x0800025C) - Data: 06 48  returns 0x02 (0000ms, 1204ms total)
T5378 052:014 JLINK_SetBPEx(Addr = 0x08005B60, Type = 0xFFFFFFF2)  returns 0x00000001 (0000ms, 1204ms total)
T5378 052:014 JLINK_SetBPEx(Addr = 0x0800A47C, Type = 0xFFFFFFF2)  returns 0x00000002 (0000ms, 1204ms total)
T5378 052:014 JLINK_Go() -- CPU_WriteMem(4 bytes @ 0xE0002000) -- CPU_WriteMem(4 bytes @ 0xE0002000) -- CPU_ReadMem(4 bytes @ 0xE0001000) -- CPU_WriteMem(4 bytes @ 0xE0002008) -- CPU_WriteMem(4 bytes @ 0xE000200C) -- CPU_WriteMem(4 bytes @ 0xE0002010) -- CPU_WriteMem(4 bytes @ 0xE0002014) -- CPU_WriteMem(4 bytes @ 0xE0002018) -- CPU_WriteMem(4 bytes @ 0xE000201C) -- CPU_WriteMem(4 bytes @ 0xE0001004) (0003ms, 1207ms total)
T5378 052:117 JLINK_IsHalted()  returns TRUE (0002ms, 1209ms total)
T5378 052:119 JLINK_Halt()  returns 0x00 (0000ms, 1207ms total)
T5378 052:119 JLINK_IsHalted()  returns TRUE (0000ms, 1207ms total)
T5378 052:119 JLINK_IsHalted()  returns TRUE (0000ms, 1207ms total)
T5378 052:119 JLINK_IsHalted()  returns TRUE (0000ms, 1207ms total)
T5378 052:119 JLINK_ReadReg(R15 (PC))  returns 0x08005B60 (0000ms, 1207ms total)
T5378 052:119 JLINK_ReadReg(XPSR)  returns 0x61000000 (0000ms, 1207ms total)
T5378 052:119 JLINK_ClrBPEx(BPHandle = 0x00000001)  returns 0x00 (0000ms, 1207ms total)
T5378 052:119 JLINK_ClrBPEx(BPHandle = 0x00000002)  returns 0x00 (0000ms, 1207ms total)
T5378 052:119 JLINK_ReadMemU32(0xE000ED30, 0x0001 Items, ...) -- CPU_ReadMem(4 bytes @ 0xE000ED30) - Data: 02 00 00 00  returns 0x01 (0001ms, 1208ms total)
T5378 052:120 JLINK_ReadMemU32(0xE0001028, 0x0001 Items, ...) -- CPU_ReadMem(4 bytes @ 0xE0001028) - Data: 00 00 00 00  returns 0x01 (0000ms, 1208ms total)
T5378 052:120 JLINK_ReadMemU32(0xE0001038, 0x0001 Items, ...) -- CPU_ReadMem(4 bytes @ 0xE0001038) - Data: 00 02 00 00  returns 0x01 (0000ms, 1208ms total)
T5378 052:120 JLINK_ReadMemU32(0xE0001048, 0x0001 Items, ...) -- CPU_ReadMem(4 bytes @ 0xE0001048) - Data: 00 00 00 00  returns 0x01 (0001ms, 1209ms total)
T5378 052:121 JLINK_ReadMemU32(0xE0001058, 0x0001 Items, ...) -- CPU_ReadMem(4 bytes @ 0xE0001058) - Data: 00 00 00 00  returns 0x01 (0000ms, 1209ms total)
T5378 052:121 JLINK_ReadReg(R0)  returns 0x08005B61 (0000ms, 1209ms total)
T5378 052:121 JLINK_ReadReg(R1)  returns 0x1000C000 (0000ms, 1209ms total)
T5378 052:121 JLINK_ReadReg(R2)  returns 0x00000000 (0000ms, 1209ms total)
T5378 052:121 JLINK_ReadReg(R3)  returns 0x08001889 (0000ms, 1209ms total)
T5378 052:121 JLINK_ReadReg(R4)  returns 0x0800BFC4 (0000ms, 1209ms total)
T5378 052:121 JLINK_ReadReg(R5)  returns 0x0800BFC4 (0000ms, 1209ms total)
T5378 052:121 JLINK_ReadReg(R6)  returns 0x00000000 (0000ms, 1209ms total)
T5378 052:121 JLINK_ReadReg(R7)  returns 0x00000000 (0000ms, 1209ms total)
T5378 052:121 JLINK_ReadReg(R8)  returns 0x00000000 (0000ms, 1209ms total)
T5378 052:121 JLINK_ReadReg(R9)  returns 0x00000000 (0000ms, 1209ms total)
T5378 052:121 JLINK_ReadReg(R10)  returns 0x00000000 (0000ms, 1209ms total)
T5378 052:121 JLINK_ReadReg(R11)  returns 0x00000000 (0000ms, 1209ms total)
T5378 052:121 JLINK_ReadReg(R12)  returns 0x00000000 (0000ms, 1209ms total)
T5378 052:121 JLINK_ReadReg(R13 (SP))  returns 0x2000A498 (0000ms, 1209ms total)
T5378 052:121 JLINK_ReadReg(R14)  returns 0x08000D2D (0000ms, 1209ms total)
T5378 052:121 JLINK_ReadReg(R15 (PC))  returns 0x08005B60 (0000ms, 1209ms total)
T5378 052:121 JLINK_ReadReg(XPSR)  returns 0x61000000 (0000ms, 1209ms total)
T5378 052:121 JLINK_ReadReg(MSP)  returns 0x2000A498 (0000ms, 1209ms total)
T5378 052:121 JLINK_ReadReg(PSP)  returns 0x00000000 (0000ms, 1209ms total)
T5378 052:121 JLINK_ReadReg(CFBP)  returns 0x00000000 (0000ms, 1209ms total)
T5378 052:121 JLINK_ReadReg(FPSCR)  returns 0x00000000 (0004ms, 1213ms total)
T5378 052:126 JLINK_ReadReg(FPS0)  returns 0x00000000 (0000ms, 1213ms total)
T5378 052:126 JLINK_ReadReg(FPS1)  returns 0x00000000 (0000ms, 1213ms total)
T5378 052:126 JLINK_ReadReg(FPS2)  returns 0x00000000 (0000ms, 1213ms total)
T5378 052:126 JLINK_ReadReg(FPS3)  returns 0x00000000 (0000ms, 1213ms total)
T5378 052:126 JLINK_ReadReg(FPS4)  returns 0x00000000 (0000ms, 1213ms total)
T5378 052:126 JLINK_ReadReg(FPS5)  returns 0x00000000 (0000ms, 1213ms total)
T5378 052:126 JLINK_ReadReg(FPS6)  returns 0x00000000 (0000ms, 1213ms total)
T5378 052:126 JLINK_ReadReg(FPS7)  returns 0x00000000 (0000ms, 1213ms total)
T5378 052:126 JLINK_ReadReg(FPS8)  returns 0x00000000 (0000ms, 1213ms total)
T5378 052:126 JLINK_ReadReg(FPS9)  returns 0x00000000 (0000ms, 1213ms total)
T5378 052:126 JLINK_ReadReg(FPS10)  returns 0x00000000 (0000ms, 1213ms total)
T5378 052:126 JLINK_ReadReg(FPS11)  returns 0x00000000 (0000ms, 1213ms total)
T5378 052:126 JLINK_ReadReg(FPS12)  returns 0x00000000 (0000ms, 1213ms total)
T5378 052:126 JLINK_ReadReg(FPS13)  returns 0x00000000 (0000ms, 1213ms total)
T5378 052:126 JLINK_ReadReg(FPS14)  returns 0x00000000 (0000ms, 1213ms total)
T5378 052:126 JLINK_ReadReg(FPS15)  returns 0x00000000 (0000ms, 1213ms total)
T5378 052:126 JLINK_ReadReg(FPS16)  returns 0x00000000 (0000ms, 1213ms total)
T5378 052:126 JLINK_ReadReg(FPS17)  returns 0x00000000 (0000ms, 1213ms total)
T5378 052:126 JLINK_ReadReg(FPS18)  returns 0x00000000 (0000ms, 1213ms total)
T5378 052:126 JLINK_ReadReg(FPS19)  returns 0x00000000 (0000ms, 1213ms total)
T5378 052:126 JLINK_ReadReg(FPS20)  returns 0x00000000 (0000ms, 1213ms total)
T5378 052:126 JLINK_ReadReg(FPS21)  returns 0x00000000 (0000ms, 1213ms total)
T5378 052:126 JLINK_ReadReg(FPS22)  returns 0x00000000 (0000ms, 1213ms total)
T5378 052:126 JLINK_ReadReg(FPS23)  returns 0x00000000 (0000ms, 1213ms total)
T5378 052:126 JLINK_ReadReg(FPS24)  returns 0x00000000 (0000ms, 1213ms total)
T5378 052:126 JLINK_ReadReg(FPS25)  returns 0x00000000 (0000ms, 1213ms total)
T5378 052:126 JLINK_ReadReg(FPS26)  returns 0x00000000 (0000ms, 1213ms total)
T5378 052:126 JLINK_ReadReg(FPS27)  returns 0x00000000 (0000ms, 1213ms total)
T5378 052:126 JLINK_ReadReg(FPS28)  returns 0x00000000 (0000ms, 1213ms total)
T5378 052:126 JLINK_ReadReg(FPS29)  returns 0x00000000 (0000ms, 1213ms total)
T5378 052:126 JLINK_ReadReg(FPS30)  returns 0x00000000 (0000ms, 1213ms total)
T5378 052:126 JLINK_ReadReg(FPS31)  returns 0x00000000 (0000ms, 1213ms total)
T129C 052:127 JLINK_ReadMemU32(0xE0001004, 0x0001 Items, ...) -- CPU_ReadMem(4 bytes @ 0xE0001004) - Data: E0 1D 02 00  returns 0x01 (0000ms, 1213ms total)
T129C 052:127 JLINK_ReadMemEx(0x20000084, 0x0004 Bytes, ..., Flags = 0x02000000) -- CPU_ReadMem(64 bytes @ 0x20000080) -- Updating C cache (64 bytes @ 0x20000080) -- Read from C cache (4 bytes @ 0x20000084) - Data: 00 00 00 00  returns 0x04 (0001ms, 1214ms total)
T129C 052:128 JLINK_ReadMemEx(0x2000008C, 0x0004 Bytes, ..., Flags = 0x02000000) -- Read from C cache (4 bytes @ 0x2000008C) - Data: 00 00 00 00  returns 0x04 (0000ms, 1214ms total)
T129C 052:128 JLINK_ReadMemEx(0x20000090, 0x0004 Bytes, ..., Flags = 0x02000000) -- Read from C cache (4 bytes @ 0x20000090) - Data: 00 00 00 00  returns 0x04 (0000ms, 1214ms total)
T129C 052:128 JLINK_ReadMemEx(0xE000ED28, 0x0004 Bytes, ..., Flags = 0x02000000) -- CPU_ReadMem(4 bytes @ 0xE000ED28) - Data: 00 00 00 00  returns 0x04 (0000ms, 1214ms total)
T129C 052:128 JLINK_ReadMemEx(0xE000ED2C, 0x0004 Bytes, ..., Flags = 0x02000000) -- CPU_ReadMem(4 bytes @ 0xE000ED2C) - Data: 00 00 00 00  returns 0x04 (0001ms, 1215ms total)
T129C 052:129 JLINK_ReadMemEx(0xE000ED30, 0x0004 Bytes, ..., Flags = 0x02000000) -- CPU_ReadMem(4 bytes @ 0xE000ED30) - Data: 02 00 00 00  returns 0x04 (0000ms, 1215ms total)
T129C 052:129 JLINK_ReadMemEx(0xE000ED34, 0x0004 Bytes, ..., Flags = 0x02000000) -- CPU_ReadMem(4 bytes @ 0xE000ED34) - Data: F8 ED 00 E0  returns 0x04 (0000ms, 1215ms total)
T129C 052:129 JLINK_ReadMemEx(0xE000ED38, 0x0004 Bytes, ..., Flags = 0x02000000) -- CPU_ReadMem(4 bytes @ 0xE000ED38) - Data: F8 ED 00 E0  returns 0x04 (0001ms, 1216ms total)
T129C 052:130 JLINK_ReadMemEx(0xE000ED3C, 0x0004 Bytes, ..., Flags = 0x02000000) -- CPU_ReadMem(4 bytes @ 0xE000ED3C) - Data: 00 00 00 00  returns 0x04 (0000ms, 1216ms total)
T129C 052:131 JLINK_ReadMemEx(0x50060800, 0x0008 Bytes, ..., Flags = 0x02000004) -- CPU_ReadMem(8 bytes @ 0x50060800) - Data: 00 00 00 00 00 00 00 00  returns 0x08 (0000ms, 1216ms total)
T129C 052:131 JLINK_ReadMemEx(0x50060800, 0x0004 Bytes, ..., Flags = 0x02000004) -- CPU_ReadMem(4 bytes @ 0x50060800) - Data: 00 00 00 00  returns 0x04 (0001ms, 1217ms total)
T129C 052:132 JLINK_ReadMemEx(0x50060804, 0x0004 Bytes, ..., Flags = 0x02000004) -- CPU_ReadMem(4 bytes @ 0x50060804) - Data: 00 00 00 00  returns 0x04 (0000ms, 1217ms total)
T129C 052:132 JLINK_ReadMemEx(0x50060808, 0x0004 Bytes, ..., Flags = 0x02000004) -- CPU_ReadMem(4 bytes @ 0x50060808) - Data: 00 00 00 00  returns 0x04 (0000ms, 1217ms total)
T129C 052:132 JLINK_ReadMemEx(0x50060808, 0x0004 Bytes, ..., Flags = 0x02000004) -- CPU_ReadMem(4 bytes @ 0x50060808) - Data: 00 00 00 00  returns 0x04 (0000ms, 1217ms total)
T129C 052:132 JLINK_ReadMemEx(0x40029000, 0x0024 Bytes, ..., Flags = 0x02000004) -- CPU_ReadMem(36 bytes @ 0x40029000) - Data: 00 00 00 00 00 00 00 00 00 00 00 00 00 00 00 00 ...  returns 0x24 (0001ms, 1218ms total)
T129C 052:133 JLINK_ReadMemEx(0x40029000, 0x0004 Bytes, ..., Flags = 0x02000004) -- CPU_ReadMem(4 bytes @ 0x40029000) - Data: 00 00 00 00  returns 0x04 (0000ms, 1218ms total)
T129C 052:133 JLINK_ReadMemEx(0x40029004, 0x0004 Bytes, ..., Flags = 0x02000004) -- CPU_ReadMem(4 bytes @ 0x40029004) - Data: 00 00 00 00  returns 0x04 (0001ms, 1219ms total)
T129C 052:134 JLINK_ReadMemEx(0x40029008, 0x0004 Bytes, ..., Flags = 0x02000004) -- CPU_ReadMem(4 bytes @ 0x40029008) - Data: 00 00 00 00  returns 0x04 (0000ms, 1219ms total)
T129C 052:134 JLINK_ReadMemEx(0x4002900C, 0x0004 Bytes, ..., Flags = 0x02000004) -- CPU_ReadMem(4 bytes @ 0x4002900C) - Data: 00 00 00 00  returns 0x04 (0000ms, 1219ms total)
T129C 052:134 JLINK_ReadMemEx(0x40029010, 0x0004 Bytes, ..., Flags = 0x02000004) -- CPU_ReadMem(4 bytes @ 0x40029010) - Data: 00 00 00 00  returns 0x04 (0000ms, 1219ms total)
T129C 052:134 JLINK_ReadMemEx(0x40029014, 0x0004 Bytes, ..., Flags = 0x02000004) -- CPU_ReadMem(4 bytes @ 0x40029014) - Data: 00 00 00 00  returns 0x04 (0001ms, 1220ms total)
T129C 052:135 JLINK_ReadMemEx(0x40029018, 0x0004 Bytes, ..., Flags = 0x02000004) -- CPU_ReadMem(4 bytes @ 0x40029018) - Data: 00 00 00 00  returns 0x04 (0000ms, 1220ms total)
T129C 052:135 JLINK_ReadMemEx(0x4002901C, 0x0004 Bytes, ..., Flags = 0x02000004) -- CPU_ReadMem(4 bytes @ 0x4002901C) - Data: 00 00 00 00  returns 0x04 (0000ms, 1220ms total)
T129C 052:135 JLINK_ReadMemEx(0x40029020, 0x0004 Bytes, ..., Flags = 0x02000004) -- CPU_ReadMem(4 bytes @ 0x40029020) - Data: 00 00 00 00  returns 0x04 (0001ms, 1221ms total)
T129C 052:136 JLINK_ReadMemEx(0x40029024, 0x0004 Bytes, ..., Flags = 0x02000004) -- CPU_ReadMem(4 bytes @ 0x40029024) - Data: 00 00 00 00  returns 0x04 (0000ms, 1221ms total)
T129C 052:136 JLINK_ReadMemEx(0x40029024, 0x0004 Bytes, ..., Flags = 0x02000004) -- CPU_ReadMem(4 bytes @ 0x40029024) - Data: 00 00 00 00  returns 0x04 (0000ms, 1221ms total)
T129C 052:136 JLINK_ReadMemEx(0x40029048, 0x000C Bytes, ..., Flags = 0x02000004) -- CPU_ReadMem(12 bytes @ 0x40029048) - Data: 00 00 00 00 00 00 00 00 00 00 00 00  returns 0x0C (0000ms, 1221ms total)
T129C 052:136 JLINK_ReadMemEx(0x40029048, 0x0004 Bytes, ..., Flags = 0x02000004) -- CPU_ReadMem(4 bytes @ 0x40029048) - Data: 00 00 00 00  returns 0x04 (0001ms, 1222ms total)
T129C 052:137 JLINK_ReadMemEx(0x4002904C, 0x0004 Bytes, ..., Flags = 0x02000004) -- CPU_ReadMem(4 bytes @ 0x4002904C) - Data: 00 00 00 00  returns 0x04 (0000ms, 1222ms total)
T129C 052:137 JLINK_ReadMemEx(0x40029050, 0x0004 Bytes, ..., Flags = 0x02000004) -- CPU_ReadMem(4 bytes @ 0x40029050) - Data: 00 00 00 00  returns 0x04 (0000ms, 1222ms total)
T129C 052:137 JLINK_ReadMemEx(0x40029054, 0x0004 Bytes, ..., Flags = 0x02000004) -- CPU_ReadMem(4 bytes @ 0x40029054) - Data: 00 00 00 00  returns 0x04 (0001ms, 1223ms total)
T129C 052:138 JLINK_ReadMemEx(0x40029054, 0x0004 Bytes, ..., Flags = 0x02000004) -- CPU_ReadMem(4 bytes @ 0x40029054) - Data: 00 00 00 00  returns 0x04 (0000ms, 1223ms total)
T129C 052:140 JLINK_ReadMemEx(0x08005A60, 0x003C Bytes, ..., Flags = 0x02000000) -- CPU_ReadMem(128 bytes @ 0x08005A40) -- Updating C cache (128 bytes @ 0x08005A40) -- Read from C cache (60 bytes @ 0x08005A60) - Data: B0 42 0C D9 23 6B 1B B1 32 46 03 21 20 46 98 47 ...  returns 0x3C (0001ms, 1224ms total)
T129C 052:141 JLINK_ReadMemEx(0x08005A9C, 0x003C Bytes, ..., Flags = 0x02000000) -- CPU_ReadMem(64 bytes @ 0x08005AC0) -- Updating C cache (64 bytes @ 0x08005AC0) -- Read from C cache (60 bytes @ 0x08005A9C) - Data: 98 47 15 B1 68 1C 18 D0 20 E0 A0 6A 30 44 A0 62 ...  returns 0x3C (0001ms, 1225ms total)
T129C 052:142 JLINK_ReadMemEx(0x08005AD8, 0x003C Bytes, ..., Flags = 0x02000000) -- CPU_ReadMem(64 bytes @ 0x08005B00) -- Updating C cache (64 bytes @ 0x08005B00) -- Read from C cache (60 bytes @ 0x08005AD8) - Data: 02 F0 A4 FF 58 45 F8 DD 01 1D F6 D0 FF B1 55 46 ...  returns 0x3C (0001ms, 1226ms total)
T129C 052:143 JLINK_ReadMemEx(0x08005B14, 0x003C Bytes, ..., Flags = 0x02000000) -- CPU_ReadMem(64 bytes @ 0x08005B40) -- Updating C cache (64 bytes @ 0x08005B40) -- Read from C cache (60 bytes @ 0x08005B14) - Data: FB FE 01 98 10 B1 30 46 01 F0 FF FF 00 20 BD E8 ...  returns 0x3C (0000ms, 1226ms total)
T129C 052:143 JLINK_ReadMemEx(0x08005B50, 0x003C Bytes, ..., Flags = 0x02000000) -- CPU_ReadMem(64 bytes @ 0x08005B80) -- Updating C cache (64 bytes @ 0x08005B80) -- Read from C cache (60 bytes @ 0x08005B50) - Data: 01 20 70 BD 52 1E 01 D3 00 2B E9 D1 00 20 70 BD ...  returns 0x3C (0001ms, 1227ms total)
T129C 054:582 JLINK_ReadMemEx(0x0800A472, 0x0002 Bytes, ..., Flags = 0x02000000) -- CPU_ReadMem(64 bytes @ 0x0800A440) -- Updating C cache (64 bytes @ 0x0800A440) -- Read from C cache (2 bytes @ 0x0800A472) - Data: E0 60  returns 0x02 (0000ms, 1227ms total)
T129C 054:582 JLINK_ReadMemEx(0x0800A474, 0x003C Bytes, ..., Flags = 0x02000000) -- CPU_ReadMem(64 bytes @ 0x0800A480) -- Updating C cache (64 bytes @ 0x0800A480) -- Read from C cache (60 bytes @ 0x0800A474) - Data: 1B A1 60 68 F7 F7 AE FE A0 60 60 68 F7 F7 86 FE ...  returns 0x3C (0001ms, 1228ms total)
T5378 057:275 JLINK_ReadMemEx(0x08005B60, 0x0002 Bytes, ..., Flags = 0x02000000) -- Read from C cache (2 bytes @ 0x08005B60) - Data: 1C B5  returns 0x02 (0000ms, 1228ms total)
T5378 057:275 JLINK_SetBPEx(Addr = 0x0800A484, Type = 0xFFFFFFF2)  returns 0x00000003 (0000ms, 1228ms total)
T5378 057:275 JLINK_Go() -- CPU_WriteMem(4 bytes @ 0xE0002000) -- CPU_ReadMem(4 bytes @ 0xE0001000) -- CPU_WriteMem(4 bytes @ 0xE0002008) -- CPU_WriteMem(4 bytes @ 0xE000200C) (0002ms, 1230ms total)
T5378 057:378 JLINK_IsHalted()  returns FALSE (0000ms, 1230ms total)
T5378 057:480 JLINK_IsHalted()  returns FALSE (0000ms, 1230ms total)
T5378 057:581 JLINK_IsHalted()  returns FALSE (0000ms, 1230ms total)
T5378 057:682 JLINK_IsHalted()  returns FALSE (0000ms, 1230ms total)
T5378 057:783 JLINK_ReadMemU32(0xE0001004, 0x0001 Items, ...) -- CPU_ReadMem(4 bytes @ 0xE0001004) - Data: CC A9 18 05  returns 0x01 (0000ms, 1230ms total)
T129C 057:784 JLINK_ReadMemEx(0x20000084, 0x0004 Bytes, ..., Flags = 0x02000000) -- CPU_ReadMem(4 bytes @ 0x20000084) - Data: 00 00 00 00  returns 0x04 (0000ms, 1230ms total)
T129C 057:784 JLINK_ReadMemEx(0x2000008C, 0x0004 Bytes, ..., Flags = 0x02000000) -- CPU_ReadMem(4 bytes @ 0x2000008C) - Data: 00 00 00 00  returns 0x04 (0000ms, 1230ms total)
T129C 057:784 JLINK_ReadMemEx(0x20000090, 0x0004 Bytes, ..., Flags = 0x02000000) -- CPU_ReadMem(4 bytes @ 0x20000090) - Data: 00 00 00 00  returns 0x04 (0001ms, 1231ms total)
T129C 057:785 JLINK_ReadMemEx(0xE000ED28, 0x0004 Bytes, ..., Flags = 0x02000000) -- CPU_ReadMem(4 bytes @ 0xE000ED28) - Data: 00 00 00 00  returns 0x04 (0000ms, 1231ms total)
T129C 057:785 JLINK_ReadMemEx(0xE000ED2C, 0x0004 Bytes, ..., Flags = 0x02000000) -- CPU_ReadMem(4 bytes @ 0xE000ED2C) - Data: 00 00 00 00  returns 0x04 (0000ms, 1231ms total)
T129C 057:785 JLINK_ReadMemEx(0xE000ED30, 0x0004 Bytes, ..., Flags = 0x02000000) -- CPU_ReadMem(4 bytes @ 0xE000ED30) - Data: 00 00 00 00  returns 0x04 (0001ms, 1232ms total)
T129C 057:786 JLINK_ReadMemEx(0xE000ED34, 0x0004 Bytes, ..., Flags = 0x02000000) -- CPU_ReadMem(4 bytes @ 0xE000ED34) - Data: 10 80 02 40  returns 0x04 (0000ms, 1232ms total)
T129C 057:786 JLINK_ReadMemEx(0xE000ED38, 0x0004 Bytes, ..., Flags = 0x02000000) -- CPU_ReadMem(4 bytes @ 0xE000ED38) - Data: 10 80 02 40  returns 0x04 (0001ms, 1233ms total)
T129C 057:787 JLINK_ReadMemEx(0xE000ED3C, 0x0004 Bytes, ..., Flags = 0x02000000) -- CPU_ReadMem(4 bytes @ 0xE000ED3C) - Data: 00 00 00 00  returns 0x04 (0000ms, 1233ms total)
T129C 057:787 JLINK_ReadMemEx(0x50060800, 0x0008 Bytes, ..., Flags = 0x02000004) -- CPU_ReadMem(8 bytes @ 0x50060800) - Data: 04 00 00 00 01 00 00 00  returns 0x08 (0000ms, 1233ms total)
T129C 057:787 JLINK_ReadMemEx(0x50060800, 0x0004 Bytes, ..., Flags = 0x02000004) -- CPU_ReadMem(4 bytes @ 0x50060800) - Data: 04 00 00 00  returns 0x04 (0001ms, 1234ms total)
T129C 057:788 JLINK_ReadMemEx(0x50060804, 0x0004 Bytes, ..., Flags = 0x02000004) -- CPU_ReadMem(4 bytes @ 0x50060804) - Data: 01 00 00 00  returns 0x04 (0000ms, 1234ms total)
T129C 057:788 JLINK_ReadMemEx(0x50060808, 0x0004 Bytes, ..., Flags = 0x02000004) -- CPU_ReadMem(4 bytes @ 0x50060808) - Data: 29 7D 98 9C  returns 0x04 (0000ms, 1234ms total)
T129C 057:788 JLINK_ReadMemEx(0x50060808, 0x0004 Bytes, ..., Flags = 0x02000004) -- CPU_ReadMem(4 bytes @ 0x50060808) - Data: 13 7A DB 41  returns 0x04 (0001ms, 1235ms total)
T129C 057:789 JLINK_ReadMemEx(0x40029000, 0x0024 Bytes, ..., Flags = 0x02000004) -- CPU_ReadMem(36 bytes @ 0x40029000) - Data: 00 01 02 00 00 00 00 00 00 00 00 00 00 00 00 00 ...  returns 0x24 (0000ms, 1235ms total)
T129C 057:789 JLINK_ReadMemEx(0x40029000, 0x0004 Bytes, ..., Flags = 0x02000004) -- CPU_ReadMem(4 bytes @ 0x40029000) - Data: 00 01 02 00  returns 0x04 (0001ms, 1236ms total)
T129C 057:790 JLINK_ReadMemEx(0x40029004, 0x0004 Bytes, ..., Flags = 0x02000004) -- CPU_ReadMem(4 bytes @ 0x40029004) - Data: 00 00 00 00  returns 0x04 (0000ms, 1236ms total)
T129C 057:790 JLINK_ReadMemEx(0x40029008, 0x0004 Bytes, ..., Flags = 0x02000004) -- CPU_ReadMem(4 bytes @ 0x40029008) - Data: 00 00 00 00  returns 0x04 (0000ms, 1236ms total)
T129C 057:790 JLINK_ReadMemEx(0x4002900C, 0x0004 Bytes, ..., Flags = 0x02000004) -- CPU_ReadMem(4 bytes @ 0x4002900C) - Data: 00 00 00 00  returns 0x04 (0001ms, 1237ms total)
T129C 057:791 JLINK_ReadMemEx(0x40029010, 0x0004 Bytes, ..., Flags = 0x02000004) -- CPU_ReadMem(4 bytes @ 0x40029010) - Data: 00 00 00 00  returns 0x04 (0000ms, 1237ms total)
T129C 057:791 JLINK_ReadMemEx(0x40029014, 0x0004 Bytes, ..., Flags = 0x02000004) -- CPU_ReadMem(4 bytes @ 0x40029014) - Data: 00 00 00 00  returns 0x04 (0000ms, 1237ms total)
T129C 057:791 JLINK_ReadMemEx(0x40029018, 0x0004 Bytes, ..., Flags = 0x02000004) -- CPU_ReadMem(4 bytes @ 0x40029018) - Data: 00 00 00 00  returns 0x04 (0001ms, 1238ms total)
T129C 057:792 JLINK_ReadMemEx(0x4002901C, 0x0004 Bytes, ..., Flags = 0x02000004) -- CPU_ReadMem(4 bytes @ 0x4002901C) - Data: 00 00 00 00  returns 0x04 (0000ms, 1238ms total)
T129C 057:792 JLINK_ReadMemEx(0x40029020, 0x0004 Bytes, ..., Flags = 0x02000004) -- CPU_ReadMem(4 bytes @ 0x40029020) - Data: 00 00 00 00  returns 0x04 (0000ms, 1238ms total)
T129C 057:792 JLINK_ReadMemEx(0x40029024, 0x0004 Bytes, ..., Flags = 0x02000004) -- CPU_ReadMem(4 bytes @ 0x40029024) - Data: 00 00 00 00  returns 0x04 (0001ms, 1239ms total)
T129C 057:793 JLINK_ReadMemEx(0x40029024, 0x0004 Bytes, ..., Flags = 0x02000004) -- CPU_ReadMem(4 bytes @ 0x40029024) - Data: 00 00 00 00  returns 0x04 (0000ms, 1239ms total)
T129C 057:793 JLINK_ReadMemEx(0x40029048, 0x000C Bytes, ..., Flags = 0x02000004) -- CPU_ReadMem(12 bytes @ 0x40029048) - Data: 00 00 00 00 00 00 00 00 00 00 00 00  returns 0x0C (0000ms, 1239ms total)
T129C 057:793 JLINK_ReadMemEx(0x40029048, 0x0004 Bytes, ..., Flags = 0x02000004) -- CPU_ReadMem(4 bytes @ 0x40029048) - Data: 00 00 00 00  returns 0x04 (0001ms, 1240ms total)
T129C 057:794 JLINK_ReadMemEx(0x4002904C, 0x0004 Bytes, ..., Flags = 0x02000004) -- CPU_ReadMem(4 bytes @ 0x4002904C) - Data: 00 00 00 00  returns 0x04 (0000ms, 1240ms total)
T129C 057:794 JLINK_ReadMemEx(0x40029050, 0x0004 Bytes, ..., Flags = 0x02000004) -- CPU_ReadMem(4 bytes @ 0x40029050) - Data: 00 00 00 00  returns 0x04 (0000ms, 1240ms total)
T129C 057:794 JLINK_ReadMemEx(0x40029054, 0x0004 Bytes, ..., Flags = 0x02000004) -- CPU_ReadMem(4 bytes @ 0x40029054) - Data: 00 00 00 00  returns 0x04 (0000ms, 1240ms total)
T129C 057:794 JLINK_ReadMemEx(0x40029054, 0x0004 Bytes, ..., Flags = 0x02000004) -- CPU_ReadMem(4 bytes @ 0x40029054) - Data: 00 00 00 00  returns 0x04 (0001ms, 1241ms total)
T5378 057:797 JLINK_IsHalted()  returns FALSE (0001ms, 1242ms total)
T5378 057:899 JLINK_IsHalted()  returns FALSE (0000ms, 1241ms total)
T5378 058:000 JLINK_IsHalted()  returns FALSE (0000ms, 1241ms total)
T5378 058:101 JLINK_IsHalted()  returns FALSE (0000ms, 1241ms total)
T5378 058:202 JLINK_IsHalted()  returns FALSE (0000ms, 1241ms total)
T5378 058:304 JLINK_ReadMemU32(0xE0001004, 0x0001 Items, ...) - Data: CC A9 18 05  returns 0x01 (0000ms, 1241ms total)
T129C 058:307 JLINK_ReadMemEx(0x20000084, 0x0004 Bytes, ..., Flags = 0x02000000) -- CPU_ReadMem(4 bytes @ 0x20000084) - Data: 00 00 00 00  returns 0x04 (0001ms, 1242ms total)
T129C 058:308 JLINK_ReadMemEx(0x2000008C, 0x0004 Bytes, ..., Flags = 0x02000000) -- CPU_ReadMem(4 bytes @ 0x2000008C) - Data: 00 00 00 00  returns 0x04 (0000ms, 1242ms total)
T129C 058:308 JLINK_ReadMemEx(0x20000090, 0x0004 Bytes, ..., Flags = 0x02000000) -- CPU_ReadMem(4 bytes @ 0x20000090) - Data: 00 00 00 00  returns 0x04 (0000ms, 1242ms total)
T129C 058:308 JLINK_ReadMemEx(0xE000ED28, 0x0004 Bytes, ..., Flags = 0x02000000) -- CPU_ReadMem(4 bytes @ 0xE000ED28) - Data: 00 00 00 00  returns 0x04 (0001ms, 1243ms total)
T129C 058:309 JLINK_ReadMemEx(0xE000ED2C, 0x0004 Bytes, ..., Flags = 0x02000000) -- CPU_ReadMem(4 bytes @ 0xE000ED2C) - Data: 00 00 00 00  returns 0x04 (0000ms, 1243ms total)
T129C 058:309 JLINK_ReadMemEx(0xE000ED30, 0x0004 Bytes, ..., Flags = 0x02000000) -- CPU_ReadMem(4 bytes @ 0xE000ED30) - Data: 00 00 00 00  returns 0x04 (0000ms, 1243ms total)
T129C 058:309 JLINK_ReadMemEx(0xE000ED34, 0x0004 Bytes, ..., Flags = 0x02000000) -- CPU_ReadMem(4 bytes @ 0xE000ED34) - Data: 10 80 02 40  returns 0x04 (0001ms, 1244ms total)
T129C 058:310 JLINK_ReadMemEx(0xE000ED38, 0x0004 Bytes, ..., Flags = 0x02000000) -- CPU_ReadMem(4 bytes @ 0xE000ED38) - Data: 10 80 02 40  returns 0x04 (0000ms, 1244ms total)
T129C 058:310 JLINK_ReadMemEx(0xE000ED3C, 0x0004 Bytes, ..., Flags = 0x02000000) -- CPU_ReadMem(4 bytes @ 0xE000ED3C) - Data: 00 00 00 00  returns 0x04 (0000ms, 1244ms total)
T129C 058:310 JLINK_ReadMemEx(0x50060800, 0x0008 Bytes, ..., Flags = 0x02000004) -- CPU_ReadMem(8 bytes @ 0x50060800) - Data: 04 00 00 00 01 00 00 00  returns 0x08 (0000ms, 1244ms total)
T129C 058:310 JLINK_ReadMemEx(0x50060800, 0x0004 Bytes, ..., Flags = 0x02000004) -- CPU_ReadMem(4 bytes @ 0x50060800) - Data: 04 00 00 00  returns 0x04 (0001ms, 1245ms total)
T129C 058:311 JLINK_ReadMemEx(0x50060804, 0x0004 Bytes, ..., Flags = 0x02000004) -- CPU_ReadMem(4 bytes @ 0x50060804) - Data: 01 00 00 00  returns 0x04 (0000ms, 1245ms total)
T129C 058:311 JLINK_ReadMemEx(0x50060808, 0x0004 Bytes, ..., Flags = 0x02000004) -- CPU_ReadMem(4 bytes @ 0x50060808) - Data: 6C 87 92 37  returns 0x04 (0000ms, 1245ms total)
T129C 058:311 JLINK_ReadMemEx(0x50060808, 0x0004 Bytes, ..., Flags = 0x02000004) -- CPU_ReadMem(4 bytes @ 0x50060808) - Data: 83 87 6C 0A  returns 0x04 (0001ms, 1246ms total)
T129C 058:312 JLINK_ReadMemEx(0x40029000, 0x0024 Bytes, ..., Flags = 0x02000004) -- CPU_ReadMem(36 bytes @ 0x40029000) - Data: 00 01 02 00 00 00 00 00 00 00 00 00 00 00 00 00 ...  returns 0x24 (0000ms, 1246ms total)
T129C 058:312 JLINK_ReadMemEx(0x40029000, 0x0004 Bytes, ..., Flags = 0x02000004) -- CPU_ReadMem(4 bytes @ 0x40029000) - Data: 00 01 02 00  returns 0x04 (0000ms, 1246ms total)
T129C 058:312 JLINK_ReadMemEx(0x40029004, 0x0004 Bytes, ..., Flags = 0x02000004) -- CPU_ReadMem(4 bytes @ 0x40029004) - Data: 00 00 00 00  returns 0x04 (0001ms, 1247ms total)
T129C 058:313 JLINK_ReadMemEx(0x40029008, 0x0004 Bytes, ..., Flags = 0x02000004) -- CPU_ReadMem(4 bytes @ 0x40029008) - Data: 00 00 00 00  returns 0x04 (0000ms, 1247ms total)
T129C 058:313 JLINK_ReadMemEx(0x4002900C, 0x0004 Bytes, ..., Flags = 0x02000004) -- CPU_ReadMem(4 bytes @ 0x4002900C) - Data: 00 00 00 00  returns 0x04 (0000ms, 1247ms total)
T129C 058:313 JLINK_ReadMemEx(0x40029010, 0x0004 Bytes, ..., Flags = 0x02000004) -- CPU_ReadMem(4 bytes @ 0x40029010) - Data: 00 00 00 00  returns 0x04 (0001ms, 1248ms total)
T129C 058:314 JLINK_ReadMemEx(0x40029014, 0x0004 Bytes, ..., Flags = 0x02000004) -- CPU_ReadMem(4 bytes @ 0x40029014) - Data: 00 00 00 00  returns 0x04 (0000ms, 1248ms total)
T129C 058:314 JLINK_ReadMemEx(0x40029018, 0x0004 Bytes, ..., Flags = 0x02000004) -- CPU_ReadMem(4 bytes @ 0x40029018) - Data: 00 00 00 00  returns 0x04 (0000ms, 1248ms total)
T129C 058:314 JLINK_ReadMemEx(0x4002901C, 0x0004 Bytes, ..., Flags = 0x02000004) -- CPU_ReadMem(4 bytes @ 0x4002901C) - Data: 00 00 00 00  returns 0x04 (0001ms, 1249ms total)
T129C 058:315 JLINK_ReadMemEx(0x40029020, 0x0004 Bytes, ..., Flags = 0x02000004) -- CPU_ReadMem(4 bytes @ 0x40029020) - Data: 00 00 00 00  returns 0x04 (0000ms, 1249ms total)
T129C 058:315 JLINK_ReadMemEx(0x40029024, 0x0004 Bytes, ..., Flags = 0x02000004) -- CPU_ReadMem(4 bytes @ 0x40029024) - Data: 00 00 00 00  returns 0x04 (0000ms, 1249ms total)
T129C 058:315 JLINK_ReadMemEx(0x40029024, 0x0004 Bytes, ..., Flags = 0x02000004) -- CPU_ReadMem(4 bytes @ 0x40029024) - Data: 00 00 00 00  returns 0x04 (0000ms, 1249ms total)
T129C 058:315 JLINK_ReadMemEx(0x40029048, 0x000C Bytes, ..., Flags = 0x02000004) -- CPU_ReadMem(12 bytes @ 0x40029048) - Data: 00 00 00 00 00 00 00 00 00 00 00 00  returns 0x0C (0001ms, 1250ms total)
T129C 058:316 JLINK_ReadMemEx(0x40029048, 0x0004 Bytes, ..., Flags = 0x02000004) -- CPU_ReadMem(4 bytes @ 0x40029048) - Data: 00 00 00 00  returns 0x04 (0000ms, 1250ms total)
T129C 058:316 JLINK_ReadMemEx(0x4002904C, 0x0004 Bytes, ..., Flags = 0x02000004) -- CPU_ReadMem(4 bytes @ 0x4002904C) - Data: 00 00 00 00  returns 0x04 (0000ms, 1250ms total)
T129C 058:316 JLINK_ReadMemEx(0x40029050, 0x0004 Bytes, ..., Flags = 0x02000004) -- CPU_ReadMem(4 bytes @ 0x40029050) - Data: 00 00 00 00  returns 0x04 (0001ms, 1251ms total)
T129C 058:317 JLINK_ReadMemEx(0x40029054, 0x0004 Bytes, ..., Flags = 0x02000004) -- CPU_ReadMem(4 bytes @ 0x40029054) - Data: 00 00 00 00  returns 0x04 (0000ms, 1251ms total)
T129C 058:317 JLINK_ReadMemEx(0x40029054, 0x0004 Bytes, ..., Flags = 0x02000004) -- CPU_ReadMem(4 bytes @ 0x40029054) - Data: 00 00 00 00  returns 0x04 (0000ms, 1251ms total)
T5378 058:318 JLINK_IsHalted()  returns FALSE (0000ms, 1251ms total)
T5378 058:419 JLINK_IsHalted()  returns FALSE (0000ms, 1251ms total)
T5378 058:520 JLINK_IsHalted()  returns FALSE (0000ms, 1251ms total)
T5378 058:622 JLINK_IsHalted()  returns FALSE (0000ms, 1251ms total)
T5378 058:723 JLINK_IsHalted()  returns FALSE (0000ms, 1251ms total)
T5378 058:824 JLINK_ReadMemU32(0xE0001004, 0x0001 Items, ...) - Data: CC A9 18 05  returns 0x01 (0000ms, 1251ms total)
T129C 058:824 JLINK_ReadMemEx(0x20000084, 0x0004 Bytes, ..., Flags = 0x02000000) -- CPU_ReadMem(4 bytes @ 0x20000084) - Data: 00 00 00 00  returns 0x04 (0000ms, 1251ms total)
T129C 058:824 JLINK_ReadMemEx(0x2000008C, 0x0004 Bytes, ..., Flags = 0x02000000) -- CPU_ReadMem(4 bytes @ 0x2000008C) - Data: 00 00 00 00  returns 0x04 (0000ms, 1251ms total)
T129C 058:824 JLINK_ReadMemEx(0x20000090, 0x0004 Bytes, ..., Flags = 0x02000000) -- CPU_ReadMem(4 bytes @ 0x20000090) - Data: 00 00 00 00  returns 0x04 (0001ms, 1252ms total)
T129C 058:825 JLINK_ReadMemEx(0xE000ED28, 0x0004 Bytes, ..., Flags = 0x02000000) -- CPU_ReadMem(4 bytes @ 0xE000ED28) - Data: 00 00 00 00  returns 0x04 (0000ms, 1252ms total)
T129C 058:825 JLINK_ReadMemEx(0xE000ED2C, 0x0004 Bytes, ..., Flags = 0x02000000) -- CPU_ReadMem(4 bytes @ 0xE000ED2C) - Data: 00 00 00 00  returns 0x04 (0000ms, 1252ms total)
T129C 058:825 JLINK_ReadMemEx(0xE000ED30, 0x0004 Bytes, ..., Flags = 0x02000000) -- CPU_ReadMem(4 bytes @ 0xE000ED30) - Data: 00 00 00 00  returns 0x04 (0001ms, 1253ms total)
T129C 058:826 JLINK_ReadMemEx(0xE000ED34, 0x0004 Bytes, ..., Flags = 0x02000000) -- CPU_ReadMem(4 bytes @ 0xE000ED34) - Data: 10 80 02 40  returns 0x04 (0000ms, 1253ms total)
T129C 058:826 JLINK_ReadMemEx(0xE000ED38, 0x0004 Bytes, ..., Flags = 0x02000000) -- CPU_ReadMem(4 bytes @ 0xE000ED38) - Data: 10 80 02 40  returns 0x04 (0000ms, 1253ms total)
T129C 058:826 JLINK_ReadMemEx(0xE000ED3C, 0x0004 Bytes, ..., Flags = 0x02000000) -- CPU_ReadMem(4 bytes @ 0xE000ED3C) - Data: 00 00 00 00  returns 0x04 (0001ms, 1254ms total)
T129C 058:827 JLINK_ReadMemEx(0x50060800, 0x0008 Bytes, ..., Flags = 0x02000004) -- CPU_ReadMem(8 bytes @ 0x50060800) - Data: 04 00 00 00 01 00 00 00  returns 0x08 (0000ms, 1254ms total)
